
T06E0 000:314 SEGGER J-Link V5.10l Log File (0001ms, 0285ms total)
T06E0 000:314 DLL Compiled: Feb 11 2016 18:55:09 (0001ms, 0285ms total)
T06E0 000:314 Logging started @ 2018-06-03 16:07 (0001ms, 0285ms total)
T06E0 000:315 JLINK_SetWarnOutHandler(...) (0000ms, 0285ms total)
T06E0 000:315 JLINK_OpenEx(...)
Firmware: J-Link V9 compiled Apr 21 2017 11:08:06
Hardware: V9.30
S/N: 59300616
Feature(s): RDI, FlashBP, FlashDL, JFlash, GDB  returns O.K. (0278ms, 0563ms total)
T06E0 000:593 JLINK_SetErrorOutHandler(...) (0000ms, 0563ms total)
T06E0 000:593 JLINK_ExecCommand("ProjectFile = "G:\MDK_project\w7500p\MDK_uart_to_udp\MDK\JLinkSettings.ini"", ...)Device "CORTEX-M0" selected.  returns 0x00 (0004ms, 0567ms total)
T06E0 000:600 JLINK_ExecCommand("Device = ARMCM0", ...)Device "CORTEX-M0" selected.  returns 0x00 (0003ms, 0570ms total)
T06E0 000:603 JLINK_ExecCommand("DisableConnectionTimeout", ...)  returns 0x01 (0000ms, 0570ms total)
T06E0 000:603 JLINK_GetHardwareVersion()  returns 0x16B48 (0000ms, 0570ms total)
T06E0 000:603 JLINK_GetDLLVersion()  returns 51012 (0000ms, 0570ms total)
T06E0 000:603 JLINK_GetFirmwareString(...) (0000ms, 0570ms total)
T06E0 000:626 JLINK_GetDLLVersion()  returns 51012 (0000ms, 0571ms total)
T06E0 000:626 JLINK_GetCompileDateTime() (0000ms, 0571ms total)
T06E0 000:631 JLINK_GetFirmwareString(...) (0000ms, 0571ms total)
T06E0 000:634 JLINK_GetHardwareVersion()  returns 0x16B48 (0000ms, 0571ms total)
T06E0 000:649 JLINK_TIF_Select(JLINKARM_TIF_SWD)  returns 0x00 (0001ms, 0572ms total)
T06E0 000:650 JLINK_SetSpeed(2000) (0000ms, 0572ms total)
T06E0 000:650 JLINK_GetId() >0x108 TIF>Found SWD-DP with ID 0x0BB11477 >0x0D TIF> >0x28 TIF> >0x0D TIF> >0x28 TIF> >0x0D TIF> >0x28 TIF> >0x0D TIF> >0x28 TIF> >0x0D TIF> >0x21 TIF> >0x0D TIF> >0x28 TIF> >0x0D TIF> >0x28 TIF> >0x0D TIF> >0x21 TIF> >0x0D TIF> >0x21 TIF> >0x0D TIF> >0x21 TIF> >0x0D TIF> >0x28 TIF> >0x0D TIF> >0x28 TIF> >0x0D TIF> >0x28 TIF> >0x0D TIF> >0x21 TIF> >0x0D TIF> >0x21 TIF> >0x0D TIF> >0x28 TIF> >0x0D TIF> >0x21 TIF> >0x0D TIF> >0x21 TIF>Found Cortex-M0 r0p0, Little endian.
 -- CPU_ReadMem(4 bytes @ 0xE000EDF0) -- CPU_WriteMem(4 bytes @ 0xE000EDF0) -- CPU_ReadMem(4 bytes @ 0xE0002000)FPUnit: 4 code (BP) slots and 0 literal slots -- CPU_ReadMem(4 bytes @ 0xE000EDFC) -- CPU_WriteMem(4 bytes @ 0xE000EDFC) -- CPU_ReadMem(4 bytes @ 0xE0001000) -- CPU_WriteMem(4 bytes @ 0xE0001000)CoreSight components:ROMTbl 0 @ E00FF000 -- CPU_ReadMem(16 bytes @ 0xE00FF000) -- CPU_ReadMem(16 bytes @ 0xE000EFF0) -- CPU_ReadMem(16 bytes @ 0xE000EFE0)
ROMTbl 0 [0]: FFF0F000, CID: B105E00D, PID: 000BB008 SCS -- CPU_ReadMem(16 bytes @ 0xE0001FF0) -- CPU_ReadMem(16 bytes @ 0xE0001FE0)ROMTbl 0 [1]: FFF02000, CID: B105E00D, PID: 000BB00A DWT -- CPU_ReadMem(16 bytes @ 0xE0002FF0) -- CPU_ReadMem(16 bytes @ 0xE0002FE0)ROMTbl 0 [2]: FFF03000, CID: B105E00D, PID: 000BB00B FPB >0x0D TIF> >0x21 TIF>  returns 0x0BB11477 (0035ms, 0607ms total)
T06E0 000:685 JLINK_GetDLLVersion()  returns 51012 (0000ms, 0607ms total)
T06E0 000:685 JLINK_CORE_GetFound()  returns 0x60000FF (0000ms, 0607ms total)
T06E0 000:685 JLINK_GetDebugInfo(0x100) -- Value=0xE00FF000  returns 0x00 (0000ms, 0607ms total)
T06E0 000:687 JLINK_GetDebugInfo(0x100) -- Value=0xE00FF000  returns 0x00 (0000ms, 0607ms total)
T06E0 000:687 JLINK_GetDebugInfo(0x101) -- Value=0x00000000  returns 0x00 (0000ms, 0607ms total)
T06E0 000:687 JLINK_ReadMem (0xE0041FF0, 0x0010 Bytes, ...) -- CPU is running -- CPU_ReadMem(16 bytes @ 0xE0041FF0) - Data: 00 00 00 00 00 00 00 00 00 00 00 00 00 00 00 00  returns 0x00 (0001ms, 0608ms total)
T06E0 000:688 JLINK_GetDebugInfo(0x102) -- Value=0x00000000  returns 0x00 (0000ms, 0608ms total)
T06E0 000:688 JLINK_GetDebugInfo(0x103) -- Value=0x00000000  returns 0x00 (0000ms, 0608ms total)
T06E0 000:688 JLINK_ReadMem (0xE0040FF0, 0x0010 Bytes, ...) -- CPU is running -- CPU_ReadMem(16 bytes @ 0xE0040FF0) - Data: 00 00 00 00 00 00 00 00 00 00 00 00 00 00 00 00  returns 0x00 (0000ms, 0608ms total)
T06E0 000:688 JLINK_GetDebugInfo(0x104) -- Value=0xE0000000  returns 0x00 (0001ms, 0609ms total)
T06E0 000:689 JLINK_GetDebugInfo(0x105) -- Value=0xE0001000  returns 0x00 (0000ms, 0609ms total)
T06E0 000:689 JLINK_GetDebugInfo(0x106) -- Value=0xE0002000  returns 0x00 (0000ms, 0609ms total)
T06E0 000:689 JLINK_GetDebugInfo(0x107) -- Value=0xE000E000  returns 0x00 (0000ms, 0609ms total)
T06E0 000:689 JLINK_GetDebugInfo(0x10C) -- Value=0xE000EDF0  returns 0x00 (0000ms, 0609ms total)
T06E0 000:689 JLINK_ReadMemU32(0xE000ED00, 0x0001 Items, ...) -- CPU is running -- CPU_ReadMem(4 bytes @ 0xE000ED00) - Data: 00 C2 0C 41  returns 0x01 (0000ms, 0609ms total)
T06E0 000:689 JLINK_SetResetType(JLINKARM_RESET_TYPE_NORMAL)  returns JLINKARM_RESET_TYPE_NORMAL (0000ms, 0609ms total)
T06E0 000:689 JLINK_Reset() -- CPU is running -- CPU_WriteMem(4 bytes @ 0xE000EDF0) -- CPU is running -- CPU_WriteMem(4 bytes @ 0xE000EDFC) >0x35 TIF> -- CPU is running -- CPU_WriteMem(4 bytes @ 0xE000ED0C) -- CPU is running -- CPU_ReadMem(4 bytes @ 0xE000EDF0) -- CPU is running -- CPU_ReadMem(4 bytes @ 0xE000EDF0) -- CPU is running -- CPU_WriteMem(4 bytes @ 0xE000EDF0) -- CPU is running -- CPU_WriteMem(4 bytes @ 0xE000EDFC) -- CPU is running -- CPU_ReadMem(4 bytes @ 0xE000EDF0)
 -- CPU_WriteMem(4 bytes @ 0xE0002000) -- CPU_ReadMem(4 bytes @ 0xE000EDFC) -- CPU_ReadMem(4 bytes @ 0xE0001000) -- CPU_WriteMem(4 bytes @ 0xE0001000) (0017ms, 0626ms total)
T06E0 000:707 JLINK_Halt()  returns 0x00 (0000ms, 0626ms total)
T06E0 000:707 JLINK_IsHalted()  returns TRUE (0000ms, 0626ms total)
T06E0 000:707 JLINK_ReadMemU32(0xE000EDF0, 0x0001 Items, ...) -- CPU_ReadMem(4 bytes @ 0xE000EDF0) - Data: 03 00 03 00  returns 0x01 (0000ms, 0626ms total)
T06E0 000:707 JLINK_WriteU32(0xE000EDF0, 0xA05F0003) -- CPU_WriteMem(4 bytes @ 0xE000EDF0)  returns 0x00 (0000ms, 0626ms total)
T06E0 000:707 JLINK_WriteU32(0xE000EDFC, 0x01000000) -- CPU_WriteMem(4 bytes @ 0xE000EDFC)  returns 0x00 (0001ms, 0627ms total)
T06E0 000:716 JLINK_GetHWStatus(...)  returns 0x00 (0000ms, 0627ms total)
T06E0 000:722 JLINK_GetNumBPUnits(Type = 0xFFFFFF00)  returns 0x04 (0000ms, 0627ms total)
T06E0 000:722 JLINK_GetNumBPUnits(Type = 0xF0)  returns 0x2000 (0000ms, 0627ms total)
T06E0 000:722 JLINK_GetNumWPUnits()  returns 0x02 (0000ms, 0627ms total)
T06E0 000:727 JLINK_GetSpeed()  returns 0x7D0 (0000ms, 0627ms total)
T06E0 000:732 JLINK_ReadMemU32(0xE000E004, 0x0001 Items, ...) -- CPU_ReadMem(4 bytes @ 0xE000E004) - Data: 00 00 00 00  returns 0x01 (0000ms, 0627ms total)
T06E0 000:732 JLINK_Halt()  returns 0x00 (0000ms, 0627ms total)
T06E0 000:732 JLINK_IsHalted()  returns TRUE (0000ms, 0627ms total)
T06E0 000:735 JLINK_WriteMem(0x20000000, 0x0088 Bytes, ...) - Data: 00 BE 0A E0 0D 78 2D 06 68 40 08 24 40 00 00 D3 ... -- CPU_WriteMem(136 bytes @ 0x20000000)  returns 0x88 (0002ms, 0629ms total)
T06E0 000:737 JLINK_WriteReg(R0, 0x00000000)  returns 0x00 (0000ms, 0629ms total)
T06E0 000:737 JLINK_WriteReg(R1, 0x00B71B00)  returns 0x00 (0000ms, 0629ms total)
T06E0 000:737 JLINK_WriteReg(R2, 0x00000001)  returns 0x00 (0000ms, 0629ms total)
T06E0 000:737 JLINK_WriteReg(R3, 0x00000000)  returns 0x00 (0000ms, 0629ms total)
T06E0 000:737 JLINK_WriteReg(R4, 0x00000000)  returns 0x00 (0000ms, 0629ms total)
T06E0 000:737 JLINK_WriteReg(R5, 0x00000000)  returns 0x00 (0000ms, 0629ms total)
T06E0 000:737 JLINK_WriteReg(R6, 0x00000000)  returns 0x00 (0000ms, 0629ms total)
T06E0 000:737 JLINK_WriteReg(R7, 0x00000000)  returns 0x00 (0000ms, 0629ms total)
T06E0 000:738 JLINK_WriteReg(R8, 0x00000000)  returns 0x00 (0000ms, 0630ms total)
T06E0 000:738 JLINK_WriteReg(R9, 0x20000084)  returns 0x00 (0000ms, 0630ms total)
T06E0 000:738 JLINK_WriteReg(R10, 0x00000000)  returns 0x00 (0000ms, 0630ms total)
T06E0 000:738 JLINK_WriteReg(R11, 0x00000000)  returns 0x00 (0000ms, 0630ms total)
T06E0 000:738 JLINK_WriteReg(R12, 0x00000000)  returns 0x00 (0000ms, 0630ms total)
T06E0 000:738 JLINK_WriteReg(R13 (SP), 0x20001000)  returns 0x00 (0000ms, 0630ms total)
T06E0 000:738 JLINK_WriteReg(R14, 0x20000001)  returns 0x00 (0000ms, 0630ms total)
T06E0 000:738 JLINK_WriteReg(R15 (PC), 0x20000042)  returns 0x00 (0000ms, 0630ms total)
T06E0 000:738 JLINK_WriteReg(XPSR, 0x01000000)  returns 0x00 (0000ms, 0630ms total)
T06E0 000:738 JLINK_WriteReg(MSP, 0x20001000)  returns 0x00 (0000ms, 0630ms total)
T06E0 000:738 JLINK_WriteReg(PSP, 0x20001000)  returns 0x00 (0000ms, 0630ms total)
T06E0 000:738 JLINK_WriteReg(CFBP, 0x00000000)  returns 0x00 (0000ms, 0630ms total)
T06E0 000:738 JLINK_SetBPEx(Addr = 0x20000000, Type = 0xFFFFFFF2) -- CPU_ReadMem(4 bytes @ 0x20000000) -- CPU_WriteMem(4 bytes @ 0x20000000) -- CPU_ReadMem(4 bytes @ 0x20000000) -- CPU_WriteMem(4 bytes @ 0x20000000) -- CPU_ReadMem(2 bytes @ 0x20000000)  returns 0x00000001 (0002ms, 0632ms total)
T06E0 000:740 JLINK_Go() -- CPU_WriteMem(2 bytes @ 0x20000000) -- CPU_ReadMem(4 bytes @ 0xE0001000) -- CPU_WriteMem(4 bytes @ 0xE0001000) -- CPU_WriteMem(4 bytes @ 0xE0002008) -- CPU_WriteMem(4 bytes @ 0xE000200C) -- CPU_WriteMem(4 bytes @ 0xE0002010) -- CPU_WriteMem(4 bytes @ 0xE0002014) -- CPU_WriteMem(4 bytes @ 0xE0001004) (0005ms, 0637ms total)
T06E0 000:745 JLINK_IsHalted() -- CPU_ReadMem(2 bytes @ 0x20000000)  returns TRUE (0004ms, 0641ms total)
T06E0 000:749 JLINK_ReadReg(R15 (PC))  returns 0x20000000 (0000ms, 0637ms total)
T06E0 000:749 JLINK_ClrBPEx(BPHandle = 0x00000001)  returns 0x00 (0000ms, 0637ms total)
T06E0 000:749 JLINK_ReadReg(R0)  returns 0x00000000 (0000ms, 0637ms total)
T06E0 000:750 JLINK_WriteReg(R0, 0x00000000)  returns 0x00 (0000ms, 0637ms total)
T06E0 000:750 JLINK_WriteReg(R1, 0x00B71B00)  returns 0x00 (0000ms, 0637ms total)
T06E0 000:750 JLINK_WriteReg(R2, 0x00000001)  returns 0x00 (0000ms, 0637ms total)
T06E0 000:750 JLINK_WriteReg(R3, 0x00000000)  returns 0x00 (0000ms, 0637ms total)
T06E0 000:750 JLINK_WriteReg(R4, 0x00000000)  returns 0x00 (0000ms, 0637ms total)
T06E0 000:750 JLINK_WriteReg(R5, 0x00000000)  returns 0x00 (0000ms, 0637ms total)
T06E0 000:750 JLINK_WriteReg(R6, 0x00000000)  returns 0x00 (0000ms, 0637ms total)
T06E0 000:750 JLINK_WriteReg(R7, 0x00000000)  returns 0x00 (0000ms, 0637ms total)
T06E0 000:750 JLINK_WriteReg(R8, 0x00000000)  returns 0x00 (0000ms, 0637ms total)
T06E0 000:750 JLINK_WriteReg(R9, 0x20000084)  returns 0x00 (0000ms, 0637ms total)
T06E0 000:750 JLINK_WriteReg(R10, 0x00000000)  returns 0x00 (0000ms, 0637ms total)
T06E0 000:750 JLINK_WriteReg(R11, 0x00000000)  returns 0x00 (0000ms, 0637ms total)
T06E0 000:750 JLINK_WriteReg(R12, 0x00000000)  returns 0x00 (0000ms, 0637ms total)
T06E0 000:750 JLINK_WriteReg(R13 (SP), 0x20001000)  returns 0x00 (0000ms, 0637ms total)
T06E0 000:750 JLINK_WriteReg(R14, 0x20000001)  returns 0x00 (0000ms, 0637ms total)
T06E0 000:750 JLINK_WriteReg(R15 (PC), 0x2000004A)  returns 0x00 (0000ms, 0637ms total)
T06E0 000:750 JLINK_WriteReg(XPSR, 0x01000000)  returns 0x00 (0000ms, 0637ms total)
T06E0 000:750 JLINK_WriteReg(MSP, 0x20001000)  returns 0x00 (0000ms, 0637ms total)
T06E0 000:750 JLINK_WriteReg(PSP, 0x20001000)  returns 0x00 (0000ms, 0637ms total)
T06E0 000:750 JLINK_WriteReg(CFBP, 0x00000000)  returns 0x00 (0000ms, 0637ms total)
T06E0 000:750 JLINK_SetBPEx(Addr = 0x20000000, Type = 0xFFFFFFF2)  returns 0x00000002 (0000ms, 0637ms total)
T06E0 000:750 JLINK_Go() -- CPU_ReadMem(4 bytes @ 0xE0001000) -- CPU_WriteMem(4 bytes @ 0xE0001000) (0002ms, 0639ms total)
T06E0 000:752 JLINK_IsHalted()  returns FALSE (0001ms, 0640ms total)
T06E0 000:873 JLINK_IsHalted() -- CPU_ReadMem(2 bytes @ 0x20000000)  returns TRUE (0003ms, 0642ms total)
T06E0 000:876 JLINK_ReadReg(R15 (PC))  returns 0x20000000 (0000ms, 0639ms total)
T06E0 000:877 JLINK_ClrBPEx(BPHandle = 0x00000002)  returns 0x00 (0000ms, 0639ms total)
T06E0 000:877 JLINK_ReadReg(R0)  returns 0x00000000 (0000ms, 0639ms total)
T06E0 000:929 JLINK_WriteReg(R0, 0x00000001)  returns 0x00 (0000ms, 0639ms total)
T06E0 000:929 JLINK_WriteReg(R1, 0x00B71B00)  returns 0x00 (0000ms, 0639ms total)
T06E0 000:929 JLINK_WriteReg(R2, 0x00000001)  returns 0x00 (0000ms, 0639ms total)
T06E0 000:929 JLINK_WriteReg(R3, 0x00000000)  returns 0x00 (0000ms, 0639ms total)
T06E0 000:929 JLINK_WriteReg(R4, 0x00000000)  returns 0x00 (0000ms, 0639ms total)
T06E0 000:929 JLINK_WriteReg(R5, 0x00000000)  returns 0x00 (0000ms, 0639ms total)
T06E0 000:929 JLINK_WriteReg(R6, 0x00000000)  returns 0x00 (0000ms, 0639ms total)
T06E0 000:929 JLINK_WriteReg(R7, 0x00000000)  returns 0x00 (0000ms, 0639ms total)
T06E0 000:929 JLINK_WriteReg(R8, 0x00000000)  returns 0x00 (0000ms, 0639ms total)
T06E0 000:929 JLINK_WriteReg(R9, 0x20000084)  returns 0x00 (0000ms, 0639ms total)
T06E0 000:929 JLINK_WriteReg(R10, 0x00000000)  returns 0x00 (0000ms, 0639ms total)
T06E0 000:929 JLINK_WriteReg(R11, 0x00000000)  returns 0x00 (0000ms, 0639ms total)
T06E0 000:929 JLINK_WriteReg(R12, 0x00000000)  returns 0x00 (0000ms, 0639ms total)
T06E0 000:929 JLINK_WriteReg(R13 (SP), 0x20001000)  returns 0x00 (0000ms, 0639ms total)
T06E0 000:929 JLINK_WriteReg(R14, 0x20000001)  returns 0x00 (0000ms, 0639ms total)
T06E0 000:929 JLINK_WriteReg(R15 (PC), 0x20000046)  returns 0x00 (0001ms, 0640ms total)
T06E0 000:930 JLINK_WriteReg(XPSR, 0x01000000)  returns 0x00 (0000ms, 0640ms total)
T06E0 000:930 JLINK_WriteReg(MSP, 0x20001000)  returns 0x00 (0000ms, 0640ms total)
T06E0 000:930 JLINK_WriteReg(PSP, 0x20001000)  returns 0x00 (0000ms, 0640ms total)
T06E0 000:930 JLINK_WriteReg(CFBP, 0x00000000)  returns 0x00 (0000ms, 0640ms total)
T06E0 000:930 JLINK_SetBPEx(Addr = 0x20000000, Type = 0xFFFFFFF2)  returns 0x00000003 (0000ms, 0640ms total)
T06E0 000:930 JLINK_Go() -- CPU_ReadMem(4 bytes @ 0xE0001000) -- CPU_WriteMem(4 bytes @ 0xE0001000) (0002ms, 0642ms total)
T06E0 000:932 JLINK_IsHalted() -- CPU_ReadMem(2 bytes @ 0x20000000)  returns TRUE (0004ms, 0646ms total)
T06E0 000:936 JLINK_ReadReg(R15 (PC))  returns 0x20000000 (0000ms, 0642ms total)
T06E0 000:936 JLINK_ClrBPEx(BPHandle = 0x00000003)  returns 0x00 (0000ms, 0642ms total)
T06E0 000:936 JLINK_ReadReg(R0)  returns 0x00000000 (0000ms, 0642ms total)
T06E0 000:941 JLINK_WriteMem(0x20000000, 0x0088 Bytes, ...) - Data: 00 BE 0A E0 0D 78 2D 06 68 40 08 24 40 00 00 D3 ... -- CPU_WriteMem(136 bytes @ 0x20000000)  returns 0x88 (0002ms, 0644ms total)
T06E0 000:943 JLINK_WriteReg(R0, 0x00000000)  returns 0x00 (0000ms, 0644ms total)
T06E0 000:943 JLINK_WriteReg(R1, 0x00B71B00)  returns 0x00 (0000ms, 0644ms total)
T06E0 000:943 JLINK_WriteReg(R2, 0x00000002)  returns 0x00 (0000ms, 0644ms total)
T06E0 000:943 JLINK_WriteReg(R3, 0x00000000)  returns 0x00 (0000ms, 0644ms total)
T06E0 000:943 JLINK_WriteReg(R4, 0x00000000)  returns 0x00 (0000ms, 0644ms total)
T06E0 000:943 JLINK_WriteReg(R5, 0x00000000)  returns 0x00 (0000ms, 0644ms total)
T06E0 000:943 JLINK_WriteReg(R6, 0x00000000)  returns 0x00 (0001ms, 0645ms total)
T06E0 000:944 JLINK_WriteReg(R7, 0x00000000)  returns 0x00 (0000ms, 0645ms total)
T06E0 000:944 JLINK_WriteReg(R8, 0x00000000)  returns 0x00 (0000ms, 0645ms total)
T06E0 000:944 JLINK_WriteReg(R9, 0x20000084)  returns 0x00 (0000ms, 0645ms total)
T06E0 000:944 JLINK_WriteReg(R10, 0x00000000)  returns 0x00 (0000ms, 0645ms total)
T06E0 000:944 JLINK_WriteReg(R11, 0x00000000)  returns 0x00 (0000ms, 0645ms total)
T06E0 000:944 JLINK_WriteReg(R12, 0x00000000)  returns 0x00 (0000ms, 0645ms total)
T06E0 000:944 JLINK_WriteReg(R13 (SP), 0x20001000)  returns 0x00 (0000ms, 0645ms total)
T06E0 000:944 JLINK_WriteReg(R14, 0x20000001)  returns 0x00 (0000ms, 0645ms total)
T06E0 000:944 JLINK_WriteReg(R15 (PC), 0x20000042)  returns 0x00 (0000ms, 0645ms total)
T06E0 000:944 JLINK_WriteReg(XPSR, 0x01000000)  returns 0x00 (0000ms, 0645ms total)
T06E0 000:944 JLINK_WriteReg(MSP, 0x20001000)  returns 0x00 (0000ms, 0645ms total)
T06E0 000:944 JLINK_WriteReg(PSP, 0x20001000)  returns 0x00 (0000ms, 0645ms total)
T06E0 000:944 JLINK_WriteReg(CFBP, 0x00000000)  returns 0x00 (0000ms, 0645ms total)
T06E0 000:944 JLINK_SetBPEx(Addr = 0x20000000, Type = 0xFFFFFFF2) -- CPU_ReadMem(4 bytes @ 0x20000000) -- CPU_WriteMem(4 bytes @ 0x20000000) -- CPU_ReadMem(4 bytes @ 0x20000000) -- CPU_WriteMem(4 bytes @ 0x20000000) -- CPU_ReadMem(2 bytes @ 0x20000000)  returns 0x00000004 (0002ms, 0647ms total)
T06E0 000:946 JLINK_Go() -- CPU_WriteMem(2 bytes @ 0x20000000) -- CPU_ReadMem(4 bytes @ 0xE0001000) -- CPU_WriteMem(4 bytes @ 0xE0001000) (0002ms, 0649ms total)
T06E0 000:948 JLINK_IsHalted() -- CPU_ReadMem(2 bytes @ 0x20000000)  returns TRUE (0004ms, 0653ms total)
T06E0 000:952 JLINK_ReadReg(R15 (PC))  returns 0x20000000 (0000ms, 0649ms total)
T06E0 000:952 JLINK_ClrBPEx(BPHandle = 0x00000004)  returns 0x00 (0000ms, 0649ms total)
T06E0 000:952 JLINK_ReadReg(R0)  returns 0x00000000 (0000ms, 0649ms total)
T06E0 000:953 JLINK_WriteMem(0x20000088, 0x0100 Bytes, ...) - Data: 00 21 00 20 4D 01 00 00 97 0C 00 00 09 0C 00 00 ... -- CPU_WriteMem(256 bytes @ 0x20000088)  returns 0x100 (0002ms, 0651ms total)
T06E0 000:955 JLINK_WriteReg(R0, 0x00000000)  returns 0x00 (0000ms, 0651ms total)
T06E0 000:955 JLINK_WriteReg(R1, 0x00000100)  returns 0x00 (0000ms, 0651ms total)
T06E0 000:955 JLINK_WriteReg(R2, 0x20000088)  returns 0x00 (0000ms, 0651ms total)
T06E0 000:955 JLINK_WriteReg(R3, 0x00000000)  returns 0x00 (0000ms, 0651ms total)
T06E0 000:955 JLINK_WriteReg(R4, 0x00000000)  returns 0x00 (0000ms, 0651ms total)
T06E0 000:955 JLINK_WriteReg(R5, 0x00000000)  returns 0x00 (0000ms, 0651ms total)
T06E0 000:955 JLINK_WriteReg(R6, 0x00000000)  returns 0x00 (0000ms, 0651ms total)
T06E0 000:955 JLINK_WriteReg(R7, 0x00000000)  returns 0x00 (0000ms, 0651ms total)
T06E0 000:955 JLINK_WriteReg(R8, 0x00000000)  returns 0x00 (0000ms, 0651ms total)
T06E0 000:955 JLINK_WriteReg(R9, 0x20000084)  returns 0x00 (0001ms, 0652ms total)
T06E0 000:956 JLINK_WriteReg(R10, 0x00000000)  returns 0x00 (0000ms, 0652ms total)
T06E0 000:956 JLINK_WriteReg(R11, 0x00000000)  returns 0x00 (0000ms, 0652ms total)
T06E0 000:956 JLINK_WriteReg(R12, 0x00000000)  returns 0x00 (0000ms, 0652ms total)
T06E0 000:956 JLINK_WriteReg(R13 (SP), 0x20001000)  returns 0x00 (0000ms, 0652ms total)
T06E0 000:956 JLINK_WriteReg(R14, 0x20000001)  returns 0x00 (0000ms, 0652ms total)
T06E0 000:956 JLINK_WriteReg(R15 (PC), 0x2000006E)  returns 0x00 (0000ms, 0652ms total)
T06E0 000:956 JLINK_WriteReg(XPSR, 0x01000000)  returns 0x00 (0000ms, 0652ms total)
T06E0 000:956 JLINK_WriteReg(MSP, 0x20001000)  returns 0x00 (0000ms, 0652ms total)
T06E0 000:956 JLINK_WriteReg(PSP, 0x20001000)  returns 0x00 (0000ms, 0652ms total)
T06E0 000:956 JLINK_WriteReg(CFBP, 0x00000000)  returns 0x00 (0000ms, 0652ms total)
T06E0 000:956 JLINK_SetBPEx(Addr = 0x20000000, Type = 0xFFFFFFF2)  returns 0x00000005 (0000ms, 0652ms total)
T06E0 000:956 JLINK_Go() -- CPU_ReadMem(4 bytes @ 0xE0001000) -- CPU_WriteMem(4 bytes @ 0xE0001000) (0002ms, 0654ms total)
T06E0 000:958 JLINK_IsHalted()  returns FALSE (0001ms, 0655ms total)
T06E0 001:012 JLINK_IsHalted() -- CPU_ReadMem(2 bytes @ 0x20000000)  returns TRUE (0004ms, 0658ms total)
T06E0 001:016 JLINK_ReadReg(R15 (PC))  returns 0x20000000 (0000ms, 0654ms total)
T06E0 001:016 JLINK_ClrBPEx(BPHandle = 0x00000005)  returns 0x00 (0000ms, 0654ms total)
T06E0 001:016 JLINK_ReadReg(R0)  returns 0x00000000 (0000ms, 0654ms total)
T06E0 001:017 JLINK_WriteMem(0x20000088, 0x0100 Bytes, ...) - Data: 04 68 0C 60 70 47 00 00 00 23 00 24 00 25 00 26 ... -- CPU_WriteMem(256 bytes @ 0x20000088)  returns 0x100 (0002ms, 0656ms total)
T06E0 001:019 JLINK_WriteReg(R0, 0x00000100)  returns 0x00 (0000ms, 0656ms total)
T06E0 001:019 JLINK_WriteReg(R1, 0x00000100)  returns 0x00 (0000ms, 0656ms total)
T06E0 001:019 JLINK_WriteReg(R2, 0x20000088)  returns 0x00 (0000ms, 0656ms total)
T06E0 001:019 JLINK_WriteReg(R3, 0x00000000)  returns 0x00 (0000ms, 0656ms total)
T06E0 001:019 JLINK_WriteReg(R4, 0x00000000)  returns 0x00 (0000ms, 0656ms total)
T06E0 001:019 JLINK_WriteReg(R5, 0x00000000)  returns 0x00 (0000ms, 0656ms total)
T06E0 001:019 JLINK_WriteReg(R6, 0x00000000)  returns 0x00 (0001ms, 0657ms total)
T06E0 001:020 JLINK_WriteReg(R7, 0x00000000)  returns 0x00 (0000ms, 0657ms total)
T06E0 001:020 JLINK_WriteReg(R8, 0x00000000)  returns 0x00 (0000ms, 0657ms total)
T06E0 001:020 JLINK_WriteReg(R9, 0x20000084)  returns 0x00 (0000ms, 0657ms total)
T06E0 001:020 JLINK_WriteReg(R10, 0x00000000)  returns 0x00 (0000ms, 0657ms total)
T06E0 001:020 JLINK_WriteReg(R11, 0x00000000)  returns 0x00 (0000ms, 0657ms total)
T06E0 001:020 JLINK_WriteReg(R12, 0x00000000)  returns 0x00 (0000ms, 0657ms total)
T06E0 001:020 JLINK_WriteReg(R13 (SP), 0x20001000)  returns 0x00 (0000ms, 0657ms total)
T06E0 001:020 JLINK_WriteReg(R14, 0x20000001)  returns 0x00 (0000ms, 0657ms total)
T06E0 001:020 JLINK_WriteReg(R15 (PC), 0x2000006E)  returns 0x00 (0000ms, 0657ms total)
T06E0 001:020 JLINK_WriteReg(XPSR, 0x01000000)  returns 0x00 (0000ms, 0657ms total)
T06E0 001:020 JLINK_WriteReg(MSP, 0x20001000)  returns 0x00 (0000ms, 0657ms total)
T06E0 001:020 JLINK_WriteReg(PSP, 0x20001000)  returns 0x00 (0000ms, 0657ms total)
T06E0 001:020 JLINK_WriteReg(CFBP, 0x00000000)  returns 0x00 (0000ms, 0657ms total)
T06E0 001:020 JLINK_SetBPEx(Addr = 0x20000000, Type = 0xFFFFFFF2)  returns 0x00000006 (0000ms, 0657ms total)
T06E0 001:020 JLINK_Go() -- CPU_ReadMem(4 bytes @ 0xE0001000) -- CPU_WriteMem(4 bytes @ 0xE0001000) (0003ms, 0660ms total)
T06E0 001:023 JLINK_IsHalted()  returns FALSE (0001ms, 0661ms total)
T06E0 001:026 JLINK_IsHalted() -- CPU_ReadMem(2 bytes @ 0x20000000)  returns TRUE (0003ms, 0663ms total)
T06E0 001:029 JLINK_ReadReg(R15 (PC))  returns 0x20000000 (0000ms, 0660ms total)
T06E0 001:029 JLINK_ClrBPEx(BPHandle = 0x00000006)  returns 0x00 (0000ms, 0660ms total)
T06E0 001:029 JLINK_ReadReg(R0)  returns 0x00000000 (0000ms, 0660ms total)
T06E0 001:030 JLINK_WriteMem(0x20000088, 0x0100 Bytes, ...) - Data: 0B 01 C0 1A 52 41 C3 08 8B 42 01 D3 CB 00 C0 1A ... -- CPU_WriteMem(256 bytes @ 0x20000088)  returns 0x100 (0003ms, 0663ms total)
T06E0 001:033 JLINK_WriteReg(R0, 0x00000200)  returns 0x00 (0000ms, 0663ms total)
T06E0 001:033 JLINK_WriteReg(R1, 0x00000100)  returns 0x00 (0000ms, 0663ms total)
T06E0 001:033 JLINK_WriteReg(R2, 0x20000088)  returns 0x00 (0000ms, 0663ms total)
T06E0 001:033 JLINK_WriteReg(R3, 0x00000000)  returns 0x00 (0000ms, 0663ms total)
T06E0 001:033 JLINK_WriteReg(R4, 0x00000000)  returns 0x00 (0000ms, 0663ms total)
T06E0 001:033 JLINK_WriteReg(R5, 0x00000000)  returns 0x00 (0000ms, 0663ms total)
T06E0 001:033 JLINK_WriteReg(R6, 0x00000000)  returns 0x00 (0000ms, 0663ms total)
T06E0 001:033 JLINK_WriteReg(R7, 0x00000000)  returns 0x00 (0000ms, 0663ms total)
T06E0 001:033 JLINK_WriteReg(R8, 0x00000000)  returns 0x00 (0000ms, 0663ms total)
T06E0 001:033 JLINK_WriteReg(R9, 0x20000084)  returns 0x00 (0000ms, 0663ms total)
T06E0 001:033 JLINK_WriteReg(R10, 0x00000000)  returns 0x00 (0000ms, 0663ms total)
T06E0 001:033 JLINK_WriteReg(R11, 0x00000000)  returns 0x00 (0000ms, 0663ms total)
T06E0 001:033 JLINK_WriteReg(R12, 0x00000000)  returns 0x00 (0000ms, 0663ms total)
T06E0 001:033 JLINK_WriteReg(R13 (SP), 0x20001000)  returns 0x00 (0000ms, 0663ms total)
T06E0 001:033 JLINK_WriteReg(R14, 0x20000001)  returns 0x00 (0000ms, 0663ms total)
T06E0 001:033 JLINK_WriteReg(R15 (PC), 0x2000006E)  returns 0x00 (0000ms, 0663ms total)
T06E0 001:033 JLINK_WriteReg(XPSR, 0x01000000)  returns 0x00 (0000ms, 0663ms total)
T06E0 001:033 JLINK_WriteReg(MSP, 0x20001000)  returns 0x00 (0000ms, 0663ms total)
T06E0 001:033 JLINK_WriteReg(PSP, 0x20001000)  returns 0x00 (0000ms, 0663ms total)
T06E0 001:033 JLINK_WriteReg(CFBP, 0x00000000)  returns 0x00 (0000ms, 0663ms total)
T06E0 001:033 JLINK_SetBPEx(Addr = 0x20000000, Type = 0xFFFFFFF2)  returns 0x00000007 (0000ms, 0663ms total)
T06E0 001:033 JLINK_Go() -- CPU_ReadMem(4 bytes @ 0xE0001000) -- CPU_WriteMem(4 bytes @ 0xE0001000) (0003ms, 0666ms total)
T06E0 001:036 JLINK_IsHalted()  returns FALSE (0000ms, 0666ms total)
T06E0 001:038 JLINK_IsHalted()  returns FALSE (0000ms, 0666ms total)
T06E0 001:040 JLINK_IsHalted() -- CPU_ReadMem(2 bytes @ 0x20000000)  returns TRUE (0003ms, 0669ms total)
T06E0 001:043 JLINK_ReadReg(R15 (PC))  returns 0x20000000 (0000ms, 0666ms total)
T06E0 001:043 JLINK_ClrBPEx(BPHandle = 0x00000007)  returns 0x00 (0000ms, 0666ms total)
T06E0 001:043 JLINK_ReadReg(R0)  returns 0x00000000 (0000ms, 0666ms total)
T06E0 001:044 JLINK_WriteMem(0x20000088, 0x0100 Bytes, ...) - Data: 70 47 70 47 F0 B5 0C 46 87 1A 9C 41 0D 46 86 1A ... -- CPU_WriteMem(256 bytes @ 0x20000088)  returns 0x100 (0003ms, 0669ms total)
T06E0 001:047 JLINK_WriteReg(R0, 0x00000300)  returns 0x00 (0000ms, 0669ms total)
T06E0 001:047 JLINK_WriteReg(R1, 0x00000100)  returns 0x00 (0000ms, 0669ms total)
T06E0 001:047 JLINK_WriteReg(R2, 0x20000088)  returns 0x00 (0000ms, 0669ms total)
T06E0 001:047 JLINK_WriteReg(R3, 0x00000000)  returns 0x00 (0000ms, 0669ms total)
T06E0 001:047 JLINK_WriteReg(R4, 0x00000000)  returns 0x00 (0000ms, 0669ms total)
T06E0 001:047 JLINK_WriteReg(R5, 0x00000000)  returns 0x00 (0000ms, 0669ms total)
T06E0 001:047 JLINK_WriteReg(R6, 0x00000000)  returns 0x00 (0000ms, 0669ms total)
T06E0 001:047 JLINK_WriteReg(R7, 0x00000000)  returns 0x00 (0000ms, 0669ms total)
T06E0 001:047 JLINK_WriteReg(R8, 0x00000000)  returns 0x00 (0000ms, 0669ms total)
T06E0 001:047 JLINK_WriteReg(R9, 0x20000084)  returns 0x00 (0000ms, 0669ms total)
T06E0 001:047 JLINK_WriteReg(R10, 0x00000000)  returns 0x00 (0000ms, 0669ms total)
T06E0 001:047 JLINK_WriteReg(R11, 0x00000000)  returns 0x00 (0000ms, 0669ms total)
T06E0 001:047 JLINK_WriteReg(R12, 0x00000000)  returns 0x00 (0000ms, 0669ms total)
T06E0 001:047 JLINK_WriteReg(R13 (SP), 0x20001000)  returns 0x00 (0000ms, 0669ms total)
T06E0 001:047 JLINK_WriteReg(R14, 0x20000001)  returns 0x00 (0000ms, 0669ms total)
T06E0 001:047 JLINK_WriteReg(R15 (PC), 0x2000006E)  returns 0x00 (0000ms, 0669ms total)
T06E0 001:047 JLINK_WriteReg(XPSR, 0x01000000)  returns 0x00 (0000ms, 0669ms total)
T06E0 001:047 JLINK_WriteReg(MSP, 0x20001000)  returns 0x00 (0000ms, 0669ms total)
T06E0 001:047 JLINK_WriteReg(PSP, 0x20001000)  returns 0x00 (0000ms, 0669ms total)
T06E0 001:048 JLINK_WriteReg(CFBP, 0x00000000)  returns 0x00 (0000ms, 0670ms total)
T06E0 001:048 JLINK_SetBPEx(Addr = 0x20000000, Type = 0xFFFFFFF2)  returns 0x00000008 (0000ms, 0670ms total)
T06E0 001:048 JLINK_Go() -- CPU_ReadMem(4 bytes @ 0xE0001000) -- CPU_WriteMem(4 bytes @ 0xE0001000) (0002ms, 0672ms total)
T06E0 001:050 JLINK_IsHalted()  returns FALSE (0001ms, 0673ms total)
T06E0 001:072 JLINK_IsHalted() -- CPU_ReadMem(2 bytes @ 0x20000000)  returns TRUE (0003ms, 0675ms total)
T06E0 001:075 JLINK_ReadReg(R15 (PC))  returns 0x20000000 (0000ms, 0672ms total)
T06E0 001:075 JLINK_ClrBPEx(BPHandle = 0x00000008)  returns 0x00 (0000ms, 0672ms total)
T06E0 001:075 JLINK_ReadReg(R0)  returns 0x00000000 (0000ms, 0672ms total)
T06E0 001:076 JLINK_WriteMem(0x20000088, 0x0100 Bytes, ...) - Data: 95 4F AC 42 0C D8 AE 42 0A D8 B4 42 06 D0 01 25 ... -- CPU_WriteMem(256 bytes @ 0x20000088)  returns 0x100 (0003ms, 0675ms total)
T06E0 001:079 JLINK_WriteReg(R0, 0x00000400)  returns 0x00 (0000ms, 0675ms total)
T06E0 001:079 JLINK_WriteReg(R1, 0x00000100)  returns 0x00 (0000ms, 0675ms total)
T06E0 001:079 JLINK_WriteReg(R2, 0x20000088)  returns 0x00 (0000ms, 0675ms total)
T06E0 001:079 JLINK_WriteReg(R3, 0x00000000)  returns 0x00 (0000ms, 0675ms total)
T06E0 001:079 JLINK_WriteReg(R4, 0x00000000)  returns 0x00 (0000ms, 0675ms total)
T06E0 001:079 JLINK_WriteReg(R5, 0x00000000)  returns 0x00 (0000ms, 0675ms total)
T06E0 001:079 JLINK_WriteReg(R6, 0x00000000)  returns 0x00 (0000ms, 0675ms total)
T06E0 001:079 JLINK_WriteReg(R7, 0x00000000)  returns 0x00 (0000ms, 0675ms total)
T06E0 001:079 JLINK_WriteReg(R8, 0x00000000)  returns 0x00 (0000ms, 0675ms total)
T06E0 001:079 JLINK_WriteReg(R9, 0x20000084)  returns 0x00 (0000ms, 0675ms total)
T06E0 001:079 JLINK_WriteReg(R10, 0x00000000)  returns 0x00 (0000ms, 0675ms total)
T06E0 001:079 JLINK_WriteReg(R11, 0x00000000)  returns 0x00 (0000ms, 0675ms total)
T06E0 001:079 JLINK_WriteReg(R12, 0x00000000)  returns 0x00 (0000ms, 0675ms total)
T06E0 001:079 JLINK_WriteReg(R13 (SP), 0x20001000)  returns 0x00 (0000ms, 0675ms total)
T06E0 001:079 JLINK_WriteReg(R14, 0x20000001)  returns 0x00 (0000ms, 0675ms total)
T06E0 001:079 JLINK_WriteReg(R15 (PC), 0x2000006E)  returns 0x00 (0000ms, 0675ms total)
T06E0 001:079 JLINK_WriteReg(XPSR, 0x01000000)  returns 0x00 (0000ms, 0675ms total)
T06E0 001:079 JLINK_WriteReg(MSP, 0x20001000)  returns 0x00 (0000ms, 0675ms total)
T06E0 001:079 JLINK_WriteReg(PSP, 0x20001000)  returns 0x00 (0000ms, 0675ms total)
T06E0 001:079 JLINK_WriteReg(CFBP, 0x00000000)  returns 0x00 (0000ms, 0675ms total)
T06E0 001:079 JLINK_SetBPEx(Addr = 0x20000000, Type = 0xFFFFFFF2)  returns 0x00000009 (0000ms, 0675ms total)
T06E0 001:079 JLINK_Go() -- CPU_ReadMem(4 bytes @ 0xE0001000) -- CPU_WriteMem(4 bytes @ 0xE0001000) (0003ms, 0678ms total)
T06E0 001:082 JLINK_IsHalted()  returns FALSE (0000ms, 0678ms total)
T06E0 001:084 JLINK_IsHalted()  returns FALSE (0000ms, 0678ms total)
T06E0 001:086 JLINK_IsHalted() -- CPU_ReadMem(2 bytes @ 0x20000000)  returns TRUE (0003ms, 0681ms total)
T06E0 001:089 JLINK_ReadReg(R15 (PC))  returns 0x20000000 (0001ms, 0679ms total)
T06E0 001:090 JLINK_ClrBPEx(BPHandle = 0x00000009)  returns 0x00 (0000ms, 0679ms total)
T06E0 001:090 JLINK_ReadReg(R0)  returns 0x00000000 (0000ms, 0679ms total)
T06E0 001:090 JLINK_WriteMem(0x20000088, 0x0100 Bytes, ...) - Data: 00 28 53 D0 01 23 CC 0A DB 02 99 43 89 1E 00 2A ... -- CPU_WriteMem(256 bytes @ 0x20000088)  returns 0x100 (0003ms, 0682ms total)
T06E0 001:093 JLINK_WriteReg(R0, 0x00000500)  returns 0x00 (0000ms, 0682ms total)
T06E0 001:093 JLINK_WriteReg(R1, 0x00000100)  returns 0x00 (0000ms, 0682ms total)
T06E0 001:093 JLINK_WriteReg(R2, 0x20000088)  returns 0x00 (0000ms, 0682ms total)
T06E0 001:093 JLINK_WriteReg(R3, 0x00000000)  returns 0x00 (0000ms, 0682ms total)
T06E0 001:093 JLINK_WriteReg(R4, 0x00000000)  returns 0x00 (0000ms, 0682ms total)
T06E0 001:093 JLINK_WriteReg(R5, 0x00000000)  returns 0x00 (0000ms, 0682ms total)
T06E0 001:093 JLINK_WriteReg(R6, 0x00000000)  returns 0x00 (0000ms, 0682ms total)
T06E0 001:093 JLINK_WriteReg(R7, 0x00000000)  returns 0x00 (0000ms, 0682ms total)
T06E0 001:093 JLINK_WriteReg(R8, 0x00000000)  returns 0x00 (0000ms, 0682ms total)
T06E0 001:093 JLINK_WriteReg(R9, 0x20000084)  returns 0x00 (0000ms, 0682ms total)
T06E0 001:093 JLINK_WriteReg(R10, 0x00000000)  returns 0x00 (0000ms, 0682ms total)
T06E0 001:093 JLINK_WriteReg(R11, 0x00000000)  returns 0x00 (0000ms, 0682ms total)
T06E0 001:093 JLINK_WriteReg(R12, 0x00000000)  returns 0x00 (0000ms, 0682ms total)
T06E0 001:093 JLINK_WriteReg(R13 (SP), 0x20001000)  returns 0x00 (0000ms, 0682ms total)
T06E0 001:093 JLINK_WriteReg(R14, 0x20000001)  returns 0x00 (0000ms, 0682ms total)
T06E0 001:093 JLINK_WriteReg(R15 (PC), 0x2000006E)  returns 0x00 (0000ms, 0682ms total)
T06E0 001:093 JLINK_WriteReg(XPSR, 0x01000000)  returns 0x00 (0000ms, 0682ms total)
T06E0 001:093 JLINK_WriteReg(MSP, 0x20001000)  returns 0x00 (0000ms, 0682ms total)
T06E0 001:093 JLINK_WriteReg(PSP, 0x20001000)  returns 0x00 (0000ms, 0682ms total)
T06E0 001:093 JLINK_WriteReg(CFBP, 0x00000000)  returns 0x00 (0000ms, 0682ms total)
T06E0 001:093 JLINK_SetBPEx(Addr = 0x20000000, Type = 0xFFFFFFF2)  returns 0x0000000A (0000ms, 0682ms total)
T06E0 001:093 JLINK_Go() -- CPU_ReadMem(4 bytes @ 0xE0001000) -- CPU_WriteMem(4 bytes @ 0xE0001000) (0003ms, 0685ms total)
T06E0 001:096 JLINK_IsHalted()  returns FALSE (0000ms, 0685ms total)
T06E0 001:098 JLINK_IsHalted()  returns FALSE (0000ms, 0685ms total)
T06E0 001:105 JLINK_IsHalted() -- CPU_ReadMem(2 bytes @ 0x20000000)  returns TRUE (0003ms, 0688ms total)
T06E0 001:108 JLINK_ReadReg(R15 (PC))  returns 0x20000000 (0000ms, 0685ms total)
T06E0 001:108 JLINK_ClrBPEx(BPHandle = 0x0000000A)  returns 0x00 (0000ms, 0685ms total)
T06E0 001:108 JLINK_ReadReg(R0)  returns 0x00000000 (0000ms, 0685ms total)
T06E0 001:109 JLINK_WriteMem(0x20000088, 0x0100 Bytes, ...) - Data: 5C 40 05 D5 01 24 E4 07 63 40 FF F7 0C FF 10 BD ... -- CPU_WriteMem(256 bytes @ 0x20000088)  returns 0x100 (0003ms, 0688ms total)
T06E0 001:112 JLINK_WriteReg(R0, 0x00000600)  returns 0x00 (0000ms, 0688ms total)
T06E0 001:112 JLINK_WriteReg(R1, 0x00000100)  returns 0x00 (0000ms, 0688ms total)
T06E0 001:112 JLINK_WriteReg(R2, 0x20000088)  returns 0x00 (0000ms, 0688ms total)
T06E0 001:112 JLINK_WriteReg(R3, 0x00000000)  returns 0x00 (0000ms, 0688ms total)
T06E0 001:112 JLINK_WriteReg(R4, 0x00000000)  returns 0x00 (0000ms, 0688ms total)
T06E0 001:112 JLINK_WriteReg(R5, 0x00000000)  returns 0x00 (0000ms, 0688ms total)
T06E0 001:112 JLINK_WriteReg(R6, 0x00000000)  returns 0x00 (0000ms, 0688ms total)
T06E0 001:112 JLINK_WriteReg(R7, 0x00000000)  returns 0x00 (0000ms, 0688ms total)
T06E0 001:112 JLINK_WriteReg(R8, 0x00000000)  returns 0x00 (0000ms, 0688ms total)
T06E0 001:112 JLINK_WriteReg(R9, 0x20000084)  returns 0x00 (0000ms, 0688ms total)
T06E0 001:112 JLINK_WriteReg(R10, 0x00000000)  returns 0x00 (0000ms, 0688ms total)
T06E0 001:112 JLINK_WriteReg(R11, 0x00000000)  returns 0x00 (0000ms, 0688ms total)
T06E0 001:112 JLINK_WriteReg(R12, 0x00000000)  returns 0x00 (0000ms, 0688ms total)
T06E0 001:112 JLINK_WriteReg(R13 (SP), 0x20001000)  returns 0x00 (0000ms, 0688ms total)
T06E0 001:112 JLINK_WriteReg(R14, 0x20000001)  returns 0x00 (0000ms, 0688ms total)
T06E0 001:112 JLINK_WriteReg(R15 (PC), 0x2000006E)  returns 0x00 (0000ms, 0688ms total)
T06E0 001:112 JLINK_WriteReg(XPSR, 0x01000000)  returns 0x00 (0000ms, 0688ms total)
T06E0 001:112 JLINK_WriteReg(MSP, 0x20001000)  returns 0x00 (0000ms, 0688ms total)
T06E0 001:112 JLINK_WriteReg(PSP, 0x20001000)  returns 0x00 (0000ms, 0688ms total)
T06E0 001:113 JLINK_WriteReg(CFBP, 0x00000000)  returns 0x00 (0000ms, 0688ms total)
T06E0 001:113 JLINK_SetBPEx(Addr = 0x20000000, Type = 0xFFFFFFF2)  returns 0x0000000B (0000ms, 0688ms total)
T06E0 001:113 JLINK_Go() -- CPU_ReadMem(4 bytes @ 0xE0001000) -- CPU_WriteMem(4 bytes @ 0xE0001000) (0002ms, 0690ms total)
T06E0 001:115 JLINK_IsHalted()  returns FALSE (0000ms, 0690ms total)
T06E0 001:117 JLINK_IsHalted()  returns FALSE (0000ms, 0690ms total)
T06E0 001:119 JLINK_IsHalted() -- CPU_ReadMem(2 bytes @ 0x20000000)  returns TRUE (0003ms, 0693ms total)
T06E0 001:122 JLINK_ReadReg(R15 (PC))  returns 0x20000000 (0000ms, 0690ms total)
T06E0 001:122 JLINK_ClrBPEx(BPHandle = 0x0000000B)  returns 0x00 (0000ms, 0690ms total)
T06E0 001:122 JLINK_ReadReg(R0)  returns 0x00000000 (0001ms, 0691ms total)
T06E0 001:124 JLINK_WriteMem(0x20000088, 0x0100 Bytes, ...) - Data: C2 09 FF 27 04 46 2E 40 01 37 CB 09 3E 43 48 40 ... -- CPU_WriteMem(256 bytes @ 0x20000088)  returns 0x100 (0002ms, 0693ms total)
T06E0 001:126 JLINK_WriteReg(R0, 0x00000700)  returns 0x00 (0000ms, 0693ms total)
T06E0 001:126 JLINK_WriteReg(R1, 0x00000100)  returns 0x00 (0000ms, 0693ms total)
T06E0 001:126 JLINK_WriteReg(R2, 0x20000088)  returns 0x00 (0000ms, 0693ms total)
T06E0 001:126 JLINK_WriteReg(R3, 0x00000000)  returns 0x00 (0000ms, 0693ms total)
T06E0 001:126 JLINK_WriteReg(R4, 0x00000000)  returns 0x00 (0000ms, 0693ms total)
T06E0 001:126 JLINK_WriteReg(R5, 0x00000000)  returns 0x00 (0000ms, 0693ms total)
T06E0 001:126 JLINK_WriteReg(R6, 0x00000000)  returns 0x00 (0000ms, 0693ms total)
T06E0 001:126 JLINK_WriteReg(R7, 0x00000000)  returns 0x00 (0000ms, 0693ms total)
T06E0 001:126 JLINK_WriteReg(R8, 0x00000000)  returns 0x00 (0000ms, 0693ms total)
T06E0 001:126 JLINK_WriteReg(R9, 0x20000084)  returns 0x00 (0000ms, 0693ms total)
T06E0 001:126 JLINK_WriteReg(R10, 0x00000000)  returns 0x00 (0000ms, 0693ms total)
T06E0 001:126 JLINK_WriteReg(R11, 0x00000000)  returns 0x00 (0000ms, 0693ms total)
T06E0 001:126 JLINK_WriteReg(R12, 0x00000000)  returns 0x00 (0000ms, 0693ms total)
T06E0 001:126 JLINK_WriteReg(R13 (SP), 0x20001000)  returns 0x00 (0000ms, 0693ms total)
T06E0 001:126 JLINK_WriteReg(R14, 0x20000001)  returns 0x00 (0000ms, 0693ms total)
T06E0 001:127 JLINK_WriteReg(R15 (PC), 0x2000006E)  returns 0x00 (0000ms, 0693ms total)
T06E0 001:127 JLINK_WriteReg(XPSR, 0x01000000)  returns 0x00 (0000ms, 0693ms total)
T06E0 001:127 JLINK_WriteReg(MSP, 0x20001000)  returns 0x00 (0000ms, 0693ms total)
T06E0 001:127 JLINK_WriteReg(PSP, 0x20001000)  returns 0x00 (0000ms, 0693ms total)
T06E0 001:127 JLINK_WriteReg(CFBP, 0x00000000)  returns 0x00 (0000ms, 0693ms total)
T06E0 001:127 JLINK_SetBPEx(Addr = 0x20000000, Type = 0xFFFFFFF2)  returns 0x0000000C (0000ms, 0693ms total)
T06E0 001:127 JLINK_Go() -- CPU_ReadMem(4 bytes @ 0xE0001000) -- CPU_WriteMem(4 bytes @ 0xE0001000) (0002ms, 0695ms total)
T06E0 001:130 JLINK_IsHalted()  returns FALSE (0000ms, 0695ms total)
T06E0 001:132 JLINK_IsHalted()  returns FALSE (0000ms, 0695ms total)
T06E0 001:134 JLINK_IsHalted() -- CPU_ReadMem(2 bytes @ 0x20000000)  returns TRUE (0003ms, 0698ms total)
T06E0 001:137 JLINK_ReadReg(R15 (PC))  returns 0x20000000 (0000ms, 0695ms total)
T06E0 001:137 JLINK_ClrBPEx(BPHandle = 0x0000000C)  returns 0x00 (0000ms, 0695ms total)
T06E0 001:137 JLINK_ReadReg(R0)  returns 0x00000000 (0000ms, 0695ms total)
T06E0 001:138 JLINK_WriteMem(0x20000088, 0x0100 Bytes, ...) - Data: 05 D2 19 02 09 0E 17 D0 F8 0F C0 07 F0 BD FF 25 ... -- CPU_WriteMem(256 bytes @ 0x20000088)  returns 0x100 (0003ms, 0698ms total)
T06E0 001:141 JLINK_WriteReg(R0, 0x00000800)  returns 0x00 (0000ms, 0698ms total)
T06E0 001:141 JLINK_WriteReg(R1, 0x00000100)  returns 0x00 (0000ms, 0698ms total)
T06E0 001:141 JLINK_WriteReg(R2, 0x20000088)  returns 0x00 (0000ms, 0698ms total)
T06E0 001:141 JLINK_WriteReg(R3, 0x00000000)  returns 0x00 (0000ms, 0698ms total)
T06E0 001:141 JLINK_WriteReg(R4, 0x00000000)  returns 0x00 (0000ms, 0698ms total)
T06E0 001:141 JLINK_WriteReg(R5, 0x00000000)  returns 0x00 (0000ms, 0698ms total)
T06E0 001:141 JLINK_WriteReg(R6, 0x00000000)  returns 0x00 (0000ms, 0698ms total)
T06E0 001:141 JLINK_WriteReg(R7, 0x00000000)  returns 0x00 (0000ms, 0698ms total)
T06E0 001:141 JLINK_WriteReg(R8, 0x00000000)  returns 0x00 (0000ms, 0698ms total)
T06E0 001:141 JLINK_WriteReg(R9, 0x20000084)  returns 0x00 (0000ms, 0698ms total)
T06E0 001:141 JLINK_WriteReg(R10, 0x00000000)  returns 0x00 (0000ms, 0698ms total)
T06E0 001:141 JLINK_WriteReg(R11, 0x00000000)  returns 0x00 (0000ms, 0698ms total)
T06E0 001:141 JLINK_WriteReg(R12, 0x00000000)  returns 0x00 (0000ms, 0698ms total)
T06E0 001:141 JLINK_WriteReg(R13 (SP), 0x20001000)  returns 0x00 (0000ms, 0698ms total)
T06E0 001:141 JLINK_WriteReg(R14, 0x20000001)  returns 0x00 (0000ms, 0698ms total)
T06E0 001:141 JLINK_WriteReg(R15 (PC), 0x2000006E)  returns 0x00 (0000ms, 0698ms total)
T06E0 001:141 JLINK_WriteReg(XPSR, 0x01000000)  returns 0x00 (0000ms, 0698ms total)
T06E0 001:141 JLINK_WriteReg(MSP, 0x20001000)  returns 0x00 (0000ms, 0698ms total)
T06E0 001:141 JLINK_WriteReg(PSP, 0x20001000)  returns 0x00 (0000ms, 0698ms total)
T06E0 001:141 JLINK_WriteReg(CFBP, 0x00000000)  returns 0x00 (0000ms, 0698ms total)
T06E0 001:141 JLINK_SetBPEx(Addr = 0x20000000, Type = 0xFFFFFFF2)  returns 0x0000000D (0000ms, 0698ms total)
T06E0 001:141 JLINK_Go() -- CPU_ReadMem(4 bytes @ 0xE0001000) -- CPU_WriteMem(4 bytes @ 0xE0001000) (0003ms, 0701ms total)
T06E0 001:144 JLINK_IsHalted()  returns FALSE (0000ms, 0701ms total)
T06E0 001:146 JLINK_IsHalted()  returns FALSE (0000ms, 0701ms total)
T06E0 001:148 JLINK_IsHalted() -- CPU_ReadMem(2 bytes @ 0x20000000)  returns TRUE (0003ms, 0704ms total)
T06E0 001:151 JLINK_ReadReg(R15 (PC))  returns 0x20000000 (0001ms, 0702ms total)
T06E0 001:152 JLINK_ClrBPEx(BPHandle = 0x0000000D)  returns 0x00 (0000ms, 0702ms total)
T06E0 001:152 JLINK_ReadReg(R0)  returns 0x00000000 (0000ms, 0702ms total)
T06E0 001:153 JLINK_WriteMem(0x20000088, 0x0100 Bytes, ...) - Data: 00 20 C0 43 70 BD 20 46 70 BD 00 00 AF 0D 00 00 ... -- CPU_WriteMem(256 bytes @ 0x20000088)  returns 0x100 (0002ms, 0704ms total)
T06E0 001:155 JLINK_WriteReg(R0, 0x00000900)  returns 0x00 (0000ms, 0704ms total)
T06E0 001:155 JLINK_WriteReg(R1, 0x00000100)  returns 0x00 (0000ms, 0704ms total)
T06E0 001:155 JLINK_WriteReg(R2, 0x20000088)  returns 0x00 (0000ms, 0704ms total)
T06E0 001:155 JLINK_WriteReg(R3, 0x00000000)  returns 0x00 (0000ms, 0704ms total)
T06E0 001:155 JLINK_WriteReg(R4, 0x00000000)  returns 0x00 (0000ms, 0704ms total)
T06E0 001:155 JLINK_WriteReg(R5, 0x00000000)  returns 0x00 (0000ms, 0704ms total)
T06E0 001:155 JLINK_WriteReg(R6, 0x00000000)  returns 0x00 (0000ms, 0704ms total)
T06E0 001:155 JLINK_WriteReg(R7, 0x00000000)  returns 0x00 (0000ms, 0704ms total)
T06E0 001:155 JLINK_WriteReg(R8, 0x00000000)  returns 0x00 (0000ms, 0704ms total)
T06E0 001:155 JLINK_WriteReg(R9, 0x20000084)  returns 0x00 (0000ms, 0704ms total)
T06E0 001:155 JLINK_WriteReg(R10, 0x00000000)  returns 0x00 (0000ms, 0704ms total)
T06E0 001:155 JLINK_WriteReg(R11, 0x00000000)  returns 0x00 (0000ms, 0704ms total)
T06E0 001:155 JLINK_WriteReg(R12, 0x00000000)  returns 0x00 (0001ms, 0705ms total)
T06E0 001:156 JLINK_WriteReg(R13 (SP), 0x20001000)  returns 0x00 (0000ms, 0705ms total)
T06E0 001:156 JLINK_WriteReg(R14, 0x20000001)  returns 0x00 (0000ms, 0705ms total)
T06E0 001:156 JLINK_WriteReg(R15 (PC), 0x2000006E)  returns 0x00 (0000ms, 0705ms total)
T06E0 001:156 JLINK_WriteReg(XPSR, 0x01000000)  returns 0x00 (0000ms, 0705ms total)
T06E0 001:156 JLINK_WriteReg(MSP, 0x20001000)  returns 0x00 (0000ms, 0705ms total)
T06E0 001:156 JLINK_WriteReg(PSP, 0x20001000)  returns 0x00 (0000ms, 0705ms total)
T06E0 001:156 JLINK_WriteReg(CFBP, 0x00000000)  returns 0x00 (0000ms, 0705ms total)
T06E0 001:156 JLINK_SetBPEx(Addr = 0x20000000, Type = 0xFFFFFFF2)  returns 0x0000000E (0000ms, 0705ms total)
T06E0 001:156 JLINK_Go() -- CPU_ReadMem(4 bytes @ 0xE0001000) -- CPU_WriteMem(4 bytes @ 0xE0001000) (0002ms, 0707ms total)
T06E0 001:158 JLINK_IsHalted()  returns FALSE (0001ms, 0708ms total)
T06E0 001:181 JLINK_IsHalted() -- CPU_ReadMem(2 bytes @ 0x20000000)  returns TRUE (0003ms, 0710ms total)
T06E0 001:184 JLINK_ReadReg(R15 (PC))  returns 0x20000000 (0000ms, 0707ms total)
T06E0 001:184 JLINK_ClrBPEx(BPHandle = 0x0000000E)  returns 0x00 (0000ms, 0707ms total)
T06E0 001:184 JLINK_ReadReg(R0)  returns 0x00000000 (0001ms, 0708ms total)
T06E0 001:185 JLINK_WriteMem(0x20000088, 0x0100 Bytes, ...) - Data: 26 48 30 30 00 F0 02 FD 13 28 04 D0 00 20 00 F0 ... -- CPU_WriteMem(256 bytes @ 0x20000088)  returns 0x100 (0003ms, 0711ms total)
T06E0 001:188 JLINK_WriteReg(R0, 0x00000A00)  returns 0x00 (0000ms, 0711ms total)
T06E0 001:188 JLINK_WriteReg(R1, 0x00000100)  returns 0x00 (0000ms, 0711ms total)
T06E0 001:188 JLINK_WriteReg(R2, 0x20000088)  returns 0x00 (0000ms, 0711ms total)
T06E0 001:188 JLINK_WriteReg(R3, 0x00000000)  returns 0x00 (0000ms, 0711ms total)
T06E0 001:188 JLINK_WriteReg(R4, 0x00000000)  returns 0x00 (0000ms, 0711ms total)
T06E0 001:188 JLINK_WriteReg(R5, 0x00000000)  returns 0x00 (0000ms, 0711ms total)
T06E0 001:188 JLINK_WriteReg(R6, 0x00000000)  returns 0x00 (0000ms, 0711ms total)
T06E0 001:188 JLINK_WriteReg(R7, 0x00000000)  returns 0x00 (0000ms, 0711ms total)
T06E0 001:188 JLINK_WriteReg(R8, 0x00000000)  returns 0x00 (0000ms, 0711ms total)
T06E0 001:188 JLINK_WriteReg(R9, 0x20000084)  returns 0x00 (0000ms, 0711ms total)
T06E0 001:188 JLINK_WriteReg(R10, 0x00000000)  returns 0x00 (0000ms, 0711ms total)
T06E0 001:188 JLINK_WriteReg(R11, 0x00000000)  returns 0x00 (0000ms, 0711ms total)
T06E0 001:188 JLINK_WriteReg(R12, 0x00000000)  returns 0x00 (0000ms, 0711ms total)
T06E0 001:188 JLINK_WriteReg(R13 (SP), 0x20001000)  returns 0x00 (0000ms, 0711ms total)
T06E0 001:188 JLINK_WriteReg(R14, 0x20000001)  returns 0x00 (0000ms, 0711ms total)
T06E0 001:188 JLINK_WriteReg(R15 (PC), 0x2000006E)  returns 0x00 (0000ms, 0711ms total)
T06E0 001:188 JLINK_WriteReg(XPSR, 0x01000000)  returns 0x00 (0000ms, 0711ms total)
T06E0 001:188 JLINK_WriteReg(MSP, 0x20001000)  returns 0x00 (0000ms, 0711ms total)
T06E0 001:188 JLINK_WriteReg(PSP, 0x20001000)  returns 0x00 (0000ms, 0711ms total)
T06E0 001:188 JLINK_WriteReg(CFBP, 0x00000000)  returns 0x00 (0000ms, 0711ms total)
T06E0 001:188 JLINK_SetBPEx(Addr = 0x20000000, Type = 0xFFFFFFF2)  returns 0x0000000F (0000ms, 0711ms total)
T06E0 001:188 JLINK_Go() -- CPU_ReadMem(4 bytes @ 0xE0001000) -- CPU_WriteMem(4 bytes @ 0xE0001000) (0003ms, 0714ms total)
T06E0 001:191 JLINK_IsHalted()  returns FALSE (0000ms, 0714ms total)
T06E0 001:193 JLINK_IsHalted()  returns FALSE (0000ms, 0714ms total)
T06E0 001:195 JLINK_IsHalted() -- CPU_ReadMem(2 bytes @ 0x20000000)  returns TRUE (0003ms, 0717ms total)
T06E0 001:198 JLINK_ReadReg(R15 (PC))  returns 0x20000000 (0000ms, 0714ms total)
T06E0 001:198 JLINK_ClrBPEx(BPHandle = 0x0000000F)  returns 0x00 (0000ms, 0714ms total)
T06E0 001:198 JLINK_ReadReg(R0)  returns 0x00000000 (0000ms, 0714ms total)
T06E0 001:200 JLINK_WriteMem(0x20000088, 0x0100 Bytes, ...) - Data: 00 2E 0C D0 86 00 8E 59 B6 08 B6 00 87 00 CE 51 ... -- CPU_WriteMem(256 bytes @ 0x20000088)  returns 0x100 (0002ms, 0716ms total)
T06E0 001:202 JLINK_WriteReg(R0, 0x00000B00)  returns 0x00 (0000ms, 0716ms total)
T06E0 001:202 JLINK_WriteReg(R1, 0x00000100)  returns 0x00 (0000ms, 0716ms total)
T06E0 001:202 JLINK_WriteReg(R2, 0x20000088)  returns 0x00 (0000ms, 0716ms total)
T06E0 001:202 JLINK_WriteReg(R3, 0x00000000)  returns 0x00 (0000ms, 0716ms total)
T06E0 001:202 JLINK_WriteReg(R4, 0x00000000)  returns 0x00 (0000ms, 0716ms total)
T06E0 001:202 JLINK_WriteReg(R5, 0x00000000)  returns 0x00 (0000ms, 0716ms total)
T06E0 001:202 JLINK_WriteReg(R6, 0x00000000)  returns 0x00 (0000ms, 0716ms total)
T06E0 001:202 JLINK_WriteReg(R7, 0x00000000)  returns 0x00 (0000ms, 0716ms total)
T06E0 001:202 JLINK_WriteReg(R8, 0x00000000)  returns 0x00 (0000ms, 0716ms total)
T06E0 001:202 JLINK_WriteReg(R9, 0x20000084)  returns 0x00 (0000ms, 0716ms total)
T06E0 001:202 JLINK_WriteReg(R10, 0x00000000)  returns 0x00 (0000ms, 0716ms total)
T06E0 001:202 JLINK_WriteReg(R11, 0x00000000)  returns 0x00 (0000ms, 0716ms total)
T06E0 001:202 JLINK_WriteReg(R12, 0x00000000)  returns 0x00 (0000ms, 0716ms total)
T06E0 001:202 JLINK_WriteReg(R13 (SP), 0x20001000)  returns 0x00 (0000ms, 0716ms total)
T06E0 001:202 JLINK_WriteReg(R14, 0x20000001)  returns 0x00 (0000ms, 0716ms total)
T06E0 001:202 JLINK_WriteReg(R15 (PC), 0x2000006E)  returns 0x00 (0000ms, 0716ms total)
T06E0 001:202 JLINK_WriteReg(XPSR, 0x01000000)  returns 0x00 (0001ms, 0717ms total)
T06E0 001:203 JLINK_WriteReg(MSP, 0x20001000)  returns 0x00 (0000ms, 0717ms total)
T06E0 001:203 JLINK_WriteReg(PSP, 0x20001000)  returns 0x00 (0000ms, 0717ms total)
T06E0 001:203 JLINK_WriteReg(CFBP, 0x00000000)  returns 0x00 (0000ms, 0717ms total)
T06E0 001:203 JLINK_SetBPEx(Addr = 0x20000000, Type = 0xFFFFFFF2)  returns 0x00000010 (0000ms, 0717ms total)
T06E0 001:203 JLINK_Go() -- CPU_ReadMem(4 bytes @ 0xE0001000) -- CPU_WriteMem(4 bytes @ 0xE0001000) (0002ms, 0719ms total)
T06E0 001:205 JLINK_IsHalted()  returns FALSE (0001ms, 0720ms total)
T06E0 001:212 JLINK_IsHalted() -- CPU_ReadMem(2 bytes @ 0x20000000)  returns TRUE (0003ms, 0722ms total)
T06E0 001:215 JLINK_ReadReg(R15 (PC))  returns 0x20000000 (0000ms, 0719ms total)
T06E0 001:215 JLINK_ClrBPEx(BPHandle = 0x00000010)  returns 0x00 (0001ms, 0720ms total)
T06E0 001:216 JLINK_ReadReg(R0)  returns 0x00000000 (0000ms, 0720ms total)
T06E0 001:217 JLINK_WriteMem(0x20000088, 0x0100 Bytes, ...) - Data: 70 47 00 00 04 00 00 20 70 47 70 47 70 47 1C B5 ... -- CPU_WriteMem(256 bytes @ 0x20000088)  returns 0x100 (0002ms, 0722ms total)
T06E0 001:219 JLINK_WriteReg(R0, 0x00000C00)  returns 0x00 (0000ms, 0722ms total)
T06E0 001:219 JLINK_WriteReg(R1, 0x00000100)  returns 0x00 (0000ms, 0722ms total)
T06E0 001:219 JLINK_WriteReg(R2, 0x20000088)  returns 0x00 (0000ms, 0722ms total)
T06E0 001:219 JLINK_WriteReg(R3, 0x00000000)  returns 0x00 (0000ms, 0722ms total)
T06E0 001:219 JLINK_WriteReg(R4, 0x00000000)  returns 0x00 (0000ms, 0722ms total)
T06E0 001:219 JLINK_WriteReg(R5, 0x00000000)  returns 0x00 (0000ms, 0722ms total)
T06E0 001:219 JLINK_WriteReg(R6, 0x00000000)  returns 0x00 (0000ms, 0722ms total)
T06E0 001:219 JLINK_WriteReg(R7, 0x00000000)  returns 0x00 (0000ms, 0722ms total)
T06E0 001:219 JLINK_WriteReg(R8, 0x00000000)  returns 0x00 (0000ms, 0722ms total)
T06E0 001:219 JLINK_WriteReg(R9, 0x20000084)  returns 0x00 (0000ms, 0722ms total)
T06E0 001:219 JLINK_WriteReg(R10, 0x00000000)  returns 0x00 (0000ms, 0722ms total)
T06E0 001:219 JLINK_WriteReg(R11, 0x00000000)  returns 0x00 (0000ms, 0722ms total)
T06E0 001:219 JLINK_WriteReg(R12, 0x00000000)  returns 0x00 (0000ms, 0722ms total)
T06E0 001:219 JLINK_WriteReg(R13 (SP), 0x20001000)  returns 0x00 (0001ms, 0723ms total)
T06E0 001:220 JLINK_WriteReg(R14, 0x20000001)  returns 0x00 (0000ms, 0723ms total)
T06E0 001:220 JLINK_WriteReg(R15 (PC), 0x2000006E)  returns 0x00 (0000ms, 0723ms total)
T06E0 001:220 JLINK_WriteReg(XPSR, 0x01000000)  returns 0x00 (0000ms, 0723ms total)
T06E0 001:220 JLINK_WriteReg(MSP, 0x20001000)  returns 0x00 (0000ms, 0723ms total)
T06E0 001:220 JLINK_WriteReg(PSP, 0x20001000)  returns 0x00 (0000ms, 0723ms total)
T06E0 001:220 JLINK_WriteReg(CFBP, 0x00000000)  returns 0x00 (0000ms, 0723ms total)
T06E0 001:220 JLINK_SetBPEx(Addr = 0x20000000, Type = 0xFFFFFFF2)  returns 0x00000011 (0000ms, 0723ms total)
T06E0 001:220 JLINK_Go() -- CPU_ReadMem(4 bytes @ 0xE0001000) -- CPU_WriteMem(4 bytes @ 0xE0001000) (0002ms, 0725ms total)
